
**** 11/20/20 00:02:44 *********** Evaluation PSpice (Nov 1999) **************

 * F:\8th Semester\CSE250\Lab\Lab- 2\Schematic1_parallel.sch


 ****     CIRCUIT DESCRIPTION


******************************************************************************




* Schematics Version 9.1 - Web Update 1
* Fri Nov 20 00:02:41 2020



** Analysis setup **
.OP 


* From [PSPICE NETLIST] section of pspiceev.ini:
.lib "nom.lib"

.INC "Schematic1_parallel.net"

**** INCLUDING Schematic1_parallel.net ****
* Schematics Netlist *



R_R6         0 $N_0001  1k  
R_R4         0 $N_0002  1k  
R_R2         0 $N_0003  1k  
V_V1         $N_0004 0 12V
R_R1         $N_0004 $N_0003  10k  
R_R3         $N_0003 $N_0002  10k  
R_R5         $N_0002 $N_0001  10k  

**** RESUMING Schematic1_parallel.cir ****
.INC "Schematic1_parallel.als"



**** INCLUDING Schematic1_parallel.als ****
* Schematics Aliases *

.ALIASES
R_R6            R6(1=0 2=$N_0001 )
R_R4            R4(1=0 2=$N_0002 )
R_R2            R2(1=0 2=$N_0003 )
V_V1            V1(+=$N_0004 -=0 )
R_R1            R1(1=$N_0004 2=$N_0003 )
R_R3            R3(1=$N_0003 2=$N_0002 )
R_R5            R5(1=$N_0002 2=$N_0001 )
.ENDALIASES


**** RESUMING Schematic1_parallel.cir ****
.probe


.END

**** 11/20/20 00:02:44 *********** Evaluation PSpice (Nov 1999) **************

 * F:\8th Semester\CSE250\Lab\Lab- 2\Schematic1_parallel.sch


 ****     SMALL SIGNAL BIAS SOLUTION       TEMPERATURE =   27.000 DEG C


******************************************************************************



 NODE   VOLTAGE     NODE   VOLTAGE     NODE   VOLTAGE     NODE   VOLTAGE


($N_0001)     .0077                   ($N_0002)     .0846                       

($N_0003)    1.0070                   ($N_0004)   12.0000                   




    VOLTAGE SOURCE CURRENTS
    NAME         CURRENT

    V_V1        -1.099E-03

    TOTAL POWER DISSIPATION   1.32E-02  WATTS


**** 11/20/20 00:02:44 *********** Evaluation PSpice (Nov 1999) **************

 * F:\8th Semester\CSE250\Lab\Lab- 2\Schematic1_parallel.sch


 ****     OPERATING POINT INFORMATION      TEMPERATURE =   27.000 DEG C


******************************************************************************





          JOB CONCLUDED

          TOTAL JOB TIME             .02
