
**** 12/15/20 23:58:52 *********** Evaluation PSpice (Nov 1999) **************

 * F:\8th Semester\CSE250\Lab\Lab- 3\Fig--1.sch


 ****     CIRCUIT DESCRIPTION


******************************************************************************




* Schematics Version 9.1 - Web Update 1
* Tue Dec 15 23:58:44 2020



** Analysis setup **
.OP 


* From [PSPICE NETLIST] section of pspiceev.ini:
.lib "nom.lib"

.INC "Fig--1.net"

**** INCLUDING Fig--1.net ****
* Schematics Netlist *



R_R1         $N_0002 $N_0001  1k  
R_R2         $N_0001 $N_0003  1k  
R_R3         0 $N_0003  1k  
V_V1         $N_0002 0 5V

**** RESUMING Fig--1.cir ****
.INC "Fig--1.als"



**** INCLUDING Fig--1.als ****
* Schematics Aliases *

.ALIASES
R_R1            R1(1=$N_0002 2=$N_0001 )
R_R2            R2(1=$N_0001 2=$N_0003 )
R_R3            R3(1=0 2=$N_0003 )
V_V1            V1(+=$N_0002 -=0 )
.ENDALIASES


**** RESUMING Fig--1.cir ****
.probe


.END

**** 12/15/20 23:58:52 *********** Evaluation PSpice (Nov 1999) **************

 * F:\8th Semester\CSE250\Lab\Lab- 3\Fig--1.sch


 ****     SMALL SIGNAL BIAS SOLUTION       TEMPERATURE =   27.000 DEG C


******************************************************************************



 NODE   VOLTAGE     NODE   VOLTAGE     NODE   VOLTAGE     NODE   VOLTAGE


($N_0001)    3.3333                   ($N_0002)    5.0000                       

($N_0003)    1.6667                   




    VOLTAGE SOURCE CURRENTS
    NAME         CURRENT

    V_V1        -1.667E-03

    TOTAL POWER DISSIPATION   8.33E-03  WATTS


**** 12/15/20 23:58:52 *********** Evaluation PSpice (Nov 1999) **************

 * F:\8th Semester\CSE250\Lab\Lab- 3\Fig--1.sch


 ****     OPERATING POINT INFORMATION      TEMPERATURE =   27.000 DEG C


******************************************************************************





          JOB CONCLUDED

          TOTAL JOB TIME             .06
